!CSV A.01.01
!Keysight Technologies,N5224A,MY51441075,A.10.49.11
!Date: Saturday, November 26, 2022 12:56:54
!Source: Standard

BEGIN CH1_DATA
Freq(Hz),S21(DB),S21(DEG)
750000000,-29.90333,-88.292114
751000000,-29.884365,-89.843147
752000000,-29.865643,-91.41407
753000000,-29.84725,-93.004425
754000000,-29.829124,-94.613777
755000000,-29.811293,-96.241905
756000000,-29.793772,-97.888786
757000000,-29.776472,-99.554001
758000000,-29.759451,-101.2378
759000000,-29.742752,-102.9398
760000000,-29.726339,-104.66011
761000000,-29.710201,-106.39789
762000000,-29.694349,-108.15369
763000000,-29.678762,-109.9272
764000000,-29.663458,-111.71776
765000000,-29.648413,-113.52546
766000000,-29.633604,-115.34991
767000000,-29.618977,-117.1916
768000000,-29.604568,-119.04983
769000000,-29.59033,-120.92461
770000000,-29.576263,-122.81577
771000000,-29.562349,-124.72309
772000000,-29.548527,-126.64665
773000000,-29.53487,-128.58647
774000000,-29.521254,-130.54234
775000000,-29.507624,-132.51448
776000000,-29.494072,-134.50261
777000000,-29.480537,-136.50702
778000000,-29.466963,-138.52744
779000000,-29.453356,-140.564
780000000,-29.439766,-142.617
781000000,-29.426109,-144.68602
782000000,-29.412373,-146.77115
783000000,-29.398598,-148.87268
784000000,-29.38475,-150.9902
785000000,-29.370838,-153.12402
786000000,-29.356825,-155.27379
787000000,-29.34273,-157.43968
788000000,-29.328564,-159.62192
789000000,-29.31431,-161.82005
790000000,-29.299999,-164.03421
791000000,-29.285524,-166.26421
792000000,-29.270931,-168.50992
793000000,-29.256294,-170.77164
794000000,-29.241461,-173.04903
795000000,-29.226503,-175.34216
796000000,-29.211369,-177.65044
797000000,-29.196089,-179.97432
798000000,-29.180531,177.68658
799000000,-29.164747,175.33186
800000000,-29.148714,172.96178
801000000,-29.13237,170.57657
802000000,-29.115707,168.17653
803000000,-29.098658,165.76128
804000000,-29.081232,163.33035
805000000,-29.063328,160.88454
806000000,-29.045012,158.42355
807000000,-29.026184,155.94653
808000000,-29.00683,153.45383
809000000,-28.986898,150.94554
810000000,-28.96641,148.42139
811000000,-28.945305,145.88078
812000000,-28.923527,143.32384
813000000,-28.901176,140.75029
814000000,-28.87809,138.15997
815000000,-28.854317,135.55247
816000000,-28.82988,132.92776
817000000,-28.804747,130.28516
818000000,-28.778976,127.62456
819000000,-28.75246,124.94598
820000000,-28.725323,122.24924
821000000,-28.697479,119.53384
822000000,-28.668955,116.79955
823000000,-28.639858,114.04662
824000000,-28.610113,111.27421
825000000,-28.579754,108.48225
826000000,-28.548805,105.67079
827000000,-28.51783,102.85783
828000000,-28.486774,100.04405
829000000,-28.455645,97.228767
830000000,-28.424496,94.412407
831000000,-28.393394,91.594223
832000000,-28.362513,88.774788
833000000,-28.331659,85.953918
834000000,-28.301033,83.132027
835000000,-28.270611,80.308495
836000000,-28.240479,77.484367
837000000,-28.210583,74.659843
838000000,-28.180971,71.833527
839000000,-28.151676,69.007317
840000000,-28.122673,66.180504
841000000,-28.093977,63.353436
842000000,-28.065647,60.526657
843000000,-28.037674,57.699745
844000000,-28.010111,54.873512
845000000,-27.982904,52.048088
846000000,-27.956083,49.222664
847000000,-27.929621,46.399014
848000000,-27.903492,43.575932
849000000,-27.87768,40.753952
850000000,-27.852318,37.933193
851000000,-27.82724,35.114285
852000000,-27.80242,32.296246
853000000,-27.777935,29.480429
854000000,-27.753685,26.666245
855000000,-27.729744,23.854141
856000000,-27.70607,21.043947
857000000,-27.682592,18.235273
858000000,-27.659323,15.428849
859000000,-27.636154,12.624174
860000000,-27.613279,9.8216467
861000000,-27.590542,7.0212364
862000000,-27.567982,4.2221694
863000000,-27.545515,1.4252355
864000000,-27.523134,-1.3696918
865000000,-27.500887,-4.1623917
866000000,-27.478792,-6.9538503
867000000,-27.456783,-9.7435741
868000000,-27.434872,-12.531242
869000000,-27.41305,-15.317288
870000000,-27.391296,-18.101786
871000000,-27.369623,-20.88496
872000000,-27.348061,-23.666546
873000000,-27.326565,-26.446953
874000000,-27.305141,-29.225554
875000000,-27.283762,-32.00301
876000000,-27.262516,-34.77882
877000000,-27.241362,-37.553215
878000000,-27.220343,-40.325928
879000000,-27.199352,-43.097572
880000000,-27.178444,-45.867924
881000000,-27.157742,-48.636868
882000000,-27.137203,-51.40398
883000000,-27.11665,-54.16988
884000000,-27.096241,-56.933887
885000000,-27.075937,-59.695847
886000000,-27.055756,-62.456192
887000000,-27.035612,-65.214302
888000000,-27.015629,-67.971077
889000000,-26.995674,-70.725677
890000000,-26.975796,-73.478401
891000000,-26.955952,-76.22892
892000000,-26.936178,-78.977348
893000000,-26.916431,-81.723312
894000000,-26.896749,-84.467033
895000000,-26.877039,-87.208954
896000000,-26.85729,-89.948364
897000000,-26.837494,-92.686028
898000000,-26.81764,-95.421013
899000000,-26.797707,-98.153885
900000000,-26.77763,-100.88447
901000000,-26.757517,-103.61275
902000000,-26.737259,-106.33936
903000000,-26.716862,-109.0635
904000000,-26.696163,-111.78545
905000000,-26.675325,-114.50562
906000000,-26.654209,-117.22416
907000000,-26.632849,-119.94102
908000000,-26.611294,-122.65658
909000000,-26.589445,-125.3709
910000000,-26.567266,-128.08403
911000000,-26.544815,-130.79588
912000000,-26.522089,-133.50748
913000000,-26.499044,-136.21802
914000000,-26.475657,-138.9281
915000000,-26.451944,-141.638
916000000,-26.427975,-144.34808
917000000,-26.403723,-147.05846
918000000,-26.379215,-149.76894
919000000,-26.354416,-152.4798
920000000,-26.32939,-155.19135
921000000,-26.304104,-157.90382
922000000,-26.278601,-160.61758
923000000,-26.252928,-163.33191
924000000,-26.227036,-166.04747
925000000,-26.201021,-168.76416
926000000,-26.174953,-171.48181
927000000,-26.148737,-174.20079
928000000,-26.122379,-176.92049
929000000,-26.09597,-179.64151
930000000,-26.069523,177.63637
931000000,-26.042971,174.91347
932000000,-26.016386,172.18942
933000000,-25.989756,169.46407
934000000,-25.963057,166.73793
935000000,-25.936356,164.01039
936000000,-25.909624,161.28206
937000000,-25.882858,158.55281
938000000,-25.856077,155.82211
939000000,-25.829252,153.09077
940000000,-25.802349,150.35809
941000000,-25.77536,147.62416
942000000,-25.748367,144.88869
943000000,-25.721382,142.15182
944000000,-25.694292,139.41376
945000000,-25.667221,136.67378
946000000,-25.640112,133.93213
947000000,-25.61302,131.18848
948000000,-25.585901,128.44289
949000000,-25.558891,125.69514
950000000,-25.531931,122.94558
951000000,-25.505039,120.1937
952000000,-25.478271,117.43918
953000000,-25.451633,114.68187
954000000,-25.425209,111.92242
955000000,-25.398994,109.16066
956000000,-25.373077,106.39606
957000000,-25.347408,103.62883
958000000,-25.32206,100.85976
959000000,-25.297049,98.088531
960000000,-25.272448,95.314789
961000000,-25.248232,92.538857
962000000,-25.224468,89.761597
963000000,-25.201242,86.982544
964000000,-25.178452,84.20192
965000000,-25.156301,81.420059
966000000,-25.134684,78.637154
967000000,-25.1136,75.853645
968000000,-25.093107,73.069748
969000000,-25.073126,70.285797
970000000,-25.053787,67.501869
971000000,-25.034966,64.717979
972000000,-25.016777,61.934887
973000000,-24.999132,59.152451
974000000,-24.981985,56.370667
975000000,-24.96541,53.590416
976000000,-24.949343,50.811852
977000000,-24.933773,48.034966
978000000,-24.918629,45.259552
979000000,-24.903934,42.485847
980000000,-24.889593,39.714493
981000000,-24.875696,36.945026
982000000,-24.862089,34.177685
983000000,-24.848816,31.412928
984000000,-24.835825,28.650072
985000000,-24.823141,25.889605
986000000,-24.810646,23.131346
987000000,-24.798353,20.375164
988000000,-24.786283,17.621229
989000000,-24.774328,14.869573
990000000,-24.762602,12.11987
991000000,-24.750956,9.3721361
992000000,-24.739515,6.626246
993000000,-24.72818,3.8820539
994000000,-24.716955,1.1394957
995000000,-24.705801,-1.6012502
996000000,-24.694725,-4.3409104
997000000,-24.683701,-7.0788412
998000000,-24.672791,-9.8156996
999000000,-24.661947,-12.551259
1000000000,-24.651232,-15.28555
1001000000,-24.640596,-18.018646
1002000000,-24.630096,-20.750961
1003000000,-24.619741,-23.482168
1004000000,-24.609507,-26.212429
1005000000,-24.59943,-28.941523
1006000000,-24.589512,-31.670078
1007000000,-24.579679,-34.397415
1008000000,-24.570051,-37.123699
1009000000,-24.560562,-39.84927
1010000000,-24.551289,-42.573494
1011000000,-24.542156,-45.29689
1012000000,-24.533306,-48.01902
1013000000,-24.524599,-50.739918
1014000000,-24.516146,-53.459461
1015000000,-24.507866,-56.177391
1016000000,-24.499794,-58.894146
1017000000,-24.491987,-61.608879
1018000000,-24.484385,-64.321678
1019000000,-24.476927,-67.032928
1020000000,-24.469673,-69.742142
1021000000,-24.462584,-72.449112
1022000000,-24.455643,-75.153854
1023000000,-24.448883,-77.85643
1024000000,-24.442251,-80.556282
1025000000,-24.43573,-83.254082
1026000000,-24.429325,-85.949112
1027000000,-24.422974,-88.641853
1028000000,-24.416658,-91.331978
1029000000,-24.410347,-94.019753
1030000000,-24.4041,-96.704788
1031000000,-24.39786,-99.38694
1032000000,-24.391521,-102.06685
1033000000,-24.385132,-104.74422
1034000000,-24.378681,-107.41911
1035000000,-24.372086,-110.09135
1036000000,-24.365377,-112.76153
1037000000,-24.358528,-115.42925
1038000000,-24.351501,-118.09511
1039000000,-24.344299,-120.75869
1040000000,-24.336933,-123.42066
1041000000,-24.32933,-126.08062
1042000000,-24.32152,-128.73904
1043000000,-24.313452,-131.39606
1044000000,-24.305132,-134.05151
1045000000,-24.296524,-136.70578
1046000000,-24.287687,-139.35919
1047000000,-24.278576,-142.01184
1048000000,-24.269176,-144.66364
1049000000,-24.259546,-147.31523
1050000000,-24.249634,-149.96629
1051000000,-24.239506,-152.61745
1052000000,-24.229126,-155.26866
1053000000,-24.218525,-157.91983
1054000000,-24.207701,-160.57114
1055000000,-24.196709,-163.22292
1056000000,-24.185459,-165.87511
1057000000,-24.174133,-168.52815
1058000000,-24.162619,-171.18175
1059000000,-24.150976,-173.83623
1060000000,-24.139267,-176.49129
1061000000,-24.127499,-179.14716
1062000000,-24.115662,178.1962
1063000000,-24.103771,175.53864
1064000000,-24.091864,172.88029
1065000000,-24.080036,170.22139
1066000000,-24.068228,167.56131
1067000000,-24.056433,164.90091
1068000000,-24.044655,162.23965
1069000000,-24.032961,159.57799
1070000000,-24.02133,156.91591
1071000000,-24.009819,154.25311
1072000000,-23.998411,151.59001
1073000000,-23.987103,148.92697
1074000000,-23.97592,146.26317
1075000000,-23.964806,143.5995
1076000000,-23.953815,140.93558
1077000000,-23.94293,138.27188
1078000000,-23.932152,135.6084
1079000000,-23.921553,132.94464
1080000000,-23.911062,130.28134
1081000000,-23.900679,127.61825
1082000000,-23.890419,124.95557
1083000000,-23.880253,122.29304
1084000000,-23.870264,119.63129
1085000000,-23.860373,116.97012
1086000000,-23.850527,114.30952
1087000000,-23.840773,111.64953
1088000000,-23.831116,108.98985
1089000000,-23.821529,106.33105
1090000000,-23.811995,103.67271
1091000000,-23.802551,101.01505
1092000000,-23.793194,98.358116
1093000000,-23.783909,95.702026
1094000000,-23.774635,93.046516
1095000000,-23.765394,90.391617
1096000000,-23.756222,87.737732
1097000000,-23.747051,85.08445
1098000000,-23.73789,82.431732
1099000000,-23.728777,79.779716
1100000000,-23.719654,77.128265
1101000000,-23.710548,74.47731
1102000000,-23.701468,71.827011
1103000000,-23.692429,69.177483
1104000000,-23.68338,66.528519
1105000000,-23.67432,63.879803
1106000000,-23.665226,61.231991
1107000000,-23.656157,58.584637
1108000000,-23.647053,55.937737
1109000000,-23.637955,53.291237
1110000000,-23.628836,50.645283
1111000000,-23.619705,47.999832
1112000000,-23.610607,45.354881
1113000000,-23.601479,42.709892
1114000000,-23.5923,40.065384
1115000000,-23.583103,37.421101
1116000000,-23.57386,34.777122
1117000000,-23.564636,32.133453
1118000000,-23.555408,29.489847
1119000000,-23.546146,26.846371
1120000000,-23.536867,24.202993
1121000000,-23.527582,21.559595
1122000000,-23.518284,18.916222
1123000000,-23.508968,16.272566
1124000000,-23.499699,13.628981
1125000000,-23.490465,10.985329
1126000000,-23.481188,8.3414917
1127000000,-23.471956,5.6973906
1128000000,-23.462791,3.0529408
1129000000,-23.453699,0.40871316
1130000000,-23.444651,-2.2358689
1131000000,-23.435722,-4.8805504
1132000000,-23.426823,-7.5254316
1133000000,-23.418066,-10.170368
1134000000,-23.409397,-12.815447
1135000000,-23.400812,-15.460473
1136000000,-23.392361,-18.105757
1137000000,-23.384016,-20.750546
1138000000,-23.375799,-23.395363
1139000000,-23.367714,-26.039963
1140000000,-23.359766,-28.684292
1141000000,-23.351906,-31.328224
1142000000,-23.34424,-33.971714
1143000000,-23.336662,-36.614826
1144000000,-23.329235,-39.257252
1145000000,-23.321941,-41.898769
1146000000,-23.314827,-44.53994
1147000000,-23.307814,-47.180046
1148000000,-23.300955,-49.819454
1149000000,-23.29421,-52.457932
1150000000,-23.287613,-55.095371
1151000000,-23.28113,-57.731956
1152000000,-23.274702,-60.367432
1153000000,-23.268377,-63.00161
1154000000,-23.262091,-65.634659
1155000000,-23.255816,-68.26651
1156000000,-23.249569,-70.897072
1157000000,-23.243353,-73.526184
1158000000,-23.23719,-76.153976
1159000000,-23.230984,-78.780487
1160000000,-23.224764,-81.405678
1161000000,-23.218521,-84.0298
1162000000,-23.212246,-86.652603
1163000000,-23.205856,-89.274353
1164000000,-23.199413,-91.894791
1165000000,-23.1929,-94.514381
1166000000,-23.186317,-97.133156
1167000000,-23.17964,-99.75071
1168000000,-23.172798,-102.36766
1169000000,-23.165825,-104.98399
1170000000,-23.158739,-107.59958
1171000000,-23.151516,-110.21468
1172000000,-23.144117,-112.8295
1173000000,-23.136618,-115.44371
1174000000,-23.12896,-118.05768
1175000000,-23.12122,-120.67177
1176000000,-23.113354,-123.2856
1177000000,-23.105394,-125.89973
1178000000,-23.097332,-128.51413
1179000000,-23.08919,-131.12863
1180000000,-23.08095,-133.74353
1181000000,-23.072678,-136.35854
1182000000,-23.064302,-138.97435
1183000000,-23.055893,-141.59024
1184000000,-23.047457,-144.20682
1185000000,-23.039,-146.82394
1186000000,-23.030548,-149.44171
1187000000,-23.022093,-152.05974
1188000000,-23.013678,-154.67848
1189000000,-23.005293,-157.29752
1190000000,-22.996946,-159.91713
1191000000,-22.988625,-162.53694
1192000000,-22.980364,-165.15717
1193000000,-22.972187,-167.77779
1194000000,-22.964113,-170.39871
1195000000,-22.956148,-173.01994
1196000000,-22.948292,-175.64134
1197000000,-22.940519,-178.26256
1198000000,-22.93285,179.1163
1199000000,-22.925323,176.49498
1200000000,-22.917927,173.87402
1201000000,-22.910635,171.25339
1202000000,-22.903435,168.63322
1203000000,-22.896334,166.01369
1204000000,-22.889332,163.39465
1205000000,-22.882393,160.77618
1206000000,-22.875568,158.15834
1207000000,-22.868822,155.5412
1208000000,-22.862089,152.92499
1209000000,-22.85544,150.30939
1210000000,-22.848816,147.69473
1211000000,-22.842228,145.08102
1212000000,-22.835642,142.46812
1213000000,-22.829067,139.85612
1214000000,-22.822456,137.24507
1215000000,-22.815861,134.6347
1216000000,-22.809189,132.02515
1217000000,-22.802456,129.41643
1218000000,-22.795626,126.80828
1219000000,-22.788731,124.20078
1220000000,-22.781752,121.59375
1221000000,-22.774698,118.98689
1222000000,-22.767487,116.3807
1223000000,-22.760162,113.77499
1224000000,-22.75272,111.1693
1225000000,-22.745144,108.56387
1226000000,-22.737494,105.95862
1227000000,-22.729698,103.35331
1228000000,-22.721809,100.74766
1229000000,-22.713848,98.141541
1230000000,-22.705723,95.535324
1231000000,-22.697525,92.92865
1232000000,-22.689207,90.321281
1233000000,-22.680819,87.71315
1234000000,-22.672377,85.104462
1235000000,-22.663816,82.494904
1236000000,-22.655214,79.884438
1237000000,-22.646626,77.273277
1238000000,-22.637985,74.661034
1239000000,-22.629372,72.047585
1240000000,-22.620747,69.433304
1241000000,-22.612171,66.818092
1242000000,-22.603634,64.201683
1243000000,-22.595158,61.584225
1244000000,-22.586781,58.965706
1245000000,-22.578518,56.346134
1246000000,-22.570337,53.725941
1247000000,-22.5623,51.104588
1248000000,-22.554436,48.482662
1249000000,-22.546736,45.860023
1250000000,-22.539175,43.236767
1251000000,-22.531815,40.612885
1252000000,-22.524616,37.988674
1253000000,-22.517584,35.364029
1254000000,-22.510725,32.739376
1255000000,-22.504078,30.114397
1256000000,-22.497639,27.489237
1257000000,-22.491388,24.863861
1258000000,-22.485344,22.238544
1259000000,-22.479471,19.613464
1260000000,-22.473827,16.988783
1261000000,-22.46837,14.364205
1262000000,-22.46314,11.740159
1263000000,-22.458075,9.1166048
1264000000,-22.453215,6.4937081
1265000000,-22.448561,3.8715677
1266000000,-22.444101,1.2503039
1267000000,-22.439762,-1.3704722
1268000000,-22.435562,-3.9901829
1269000000,-22.431471,-6.6092854
1270000000,-22.427536,-9.2272625
1271000000,-22.423721,-11.844273
1272000000,-22.419991,-14.460349
1273000000,-22.416357,-17.07531
1274000000,-22.4128,-19.688972
1275000000,-22.409325,-22.301525
1276000000,-22.405893,-24.913023
1277000000,-22.402552,-27.523163
1278000000,-22.39925,-30.132301
1279000000,-22.39595,-32.740257
1280000000,-22.392647,-35.347389
1281000000,-22.389353,-37.953438
1282000000,-22.386047,-40.558693
1283000000,-22.382734,-43.162888
1284000000,-22.379362,-45.76606
1285000000,-22.375937,-48.368538
1286000000,-22.372505,-50.9701
1287000000,-22.369047,-53.570858
1288000000,-22.365545,-56.171181
1289000000,-22.361961,-58.770821
1290000000,-22.358315,-61.369873
1291000000,-22.354637,-63.968739
1292000000,-22.350906,-66.566956
1293000000,-22.347092,-69.164848
1294000000,-22.343235,-71.762497
1295000000,-22.339338,-74.359741
1296000000,-22.335367,-76.956955
1297000000,-22.331331,-79.553848
1298000000,-22.32728,-82.150581
1299000000,-22.32317,-84.747414
1300000000,-22.319014,-87.34391
1301000000,-22.314819,-89.940636
1302000000,-22.310585,-92.537323
1303000000,-22.306332,-95.134087
1304000000,-22.302025,-97.730843
1305000000,-22.297733,-100.32776
1306000000,-22.293392,-102.92484
1307000000,-22.289099,-105.52217
1308000000,-22.284815,-108.1196
1309000000,-22.280533,-110.71737
1310000000,-22.27627,-113.31505
1311000000,-22.272058,-115.91306
1312000000,-22.267904,-118.51104
1313000000,-22.263773,-121.10906
1314000000,-22.25968,-123.7071
1315000000,-22.255642,-126.30515
1316000000,-22.251616,-128.90326
1317000000,-22.24762,-131.50134
1318000000,-22.243654,-134.09947
1319000000,-22.239744,-136.69745
1320000000,-22.235861,-139.2952
1321000000,-22.232061,-141.8929
1322000000,-22.228317,-144.49057
1323000000,-22.224663,-147.08818
1324000000,-22.221008,-149.6859
1325000000,-22.217419,-152.28346
1326000000,-22.213842,-154.88068
1327000000,-22.210266,-157.47792
1328000000,-22.206768,-160.07489
1329000000,-22.20331,-162.67154
1330000000,-22.199858,-165.26807
1331000000,-22.196486,-167.86443
1332000000,-22.193104,-170.4606
1333000000,-22.189779,-173.05646
1334000000,-22.186464,-175.65202
1335000000,-22.183201,-178.24751
1336000000,-22.179956,179.15724
1337000000,-22.176714,176.56215
1338000000,-22.173542,173.96709
1339000000,-22.170383,171.37253
1340000000,-22.167303,168.77783
1341000000,-22.164213,166.18355
1342000000,-22.161165,163.58939
1343000000,-22.158161,160.99542
1344000000,-22.155136,158.40158
1345000000,-22.152134,155.80827
1346000000,-22.149126,153.21497
1347000000,-22.146162,150.62178
1348000000,-22.143208,148.02859
1349000000,-22.140291,145.43546
1350000000,-22.1374,142.84262
1351000000,-22.134497,140.24992
1352000000,-22.131622,137.65718
1353000000,-22.128801,135.06456
1354000000,-22.125956,132.47173
1355000000,-22.123131,129.879
1356000000,-22.12039,127.28625
1357000000,-22.117683,124.69353
1358000000,-22.115007,122.10086
1359000000,-22.112379,119.50822
1360000000,-22.109772,116.91557
1361000000,-22.107218,114.3231
1362000000,-22.104717,111.73064
1363000000,-22.102285,109.13815
1364000000,-22.099884,106.54559
1365000000,-22.097544,103.95319
1366000000,-22.095245,101.36076
1367000000,-22.092995,98.768326
1368000000,-22.090818,96.176178
1369000000,-22.088686,93.584183
1370000000,-22.086678,90.992317
1371000000,-22.084715,88.400681
