!Keysight Technologies,N5224A,MY51441075,A.10.49.11
!Date: Saturday, November 26, 2022 12:56:04
!Correction: S11(Full 2 Port(1,2)) 
!S21(Full 2 Port(1,2)) 
!S12(Full 2 Port(1,2)) 
!S22(Full 2 Port(1,2)) 
!S2P File: Measurements: S11, S21, S12, S22:
# Hz S  dB   R 50
750000000 -4.1151547 -86.063354 -29.905436 -88.206543 -29.904123 -88.179832 -3.4557223 -85.875748
751000000 -4.1398811 -86.310204 -29.88645 -89.758347 -29.885153 -89.732101 -3.4800441 -86.149757
752000000 -4.1651649 -86.559135 -29.867743 -91.329643 -29.866453 -91.303612 -3.5049047 -86.426529
753000000 -4.191 -86.81012 -29.84934 -92.920204 -29.847977 -92.8946 -3.530272 -86.705956
754000000 -4.2173719 -87.06311 -29.831209 -94.530006 -29.829733 -94.504387 -3.5561635 -86.987991
755000000 -4.2443128 -87.318085 -29.813341 -96.158737 -29.811796 -96.133331 -3.5825553 -87.272545
756000000 -4.2718148 -87.575134 -29.795757 -97.806122 -29.794207 -97.78109 -3.6094766 -87.559662
757000000 -4.2998638 -87.834236 -29.778446 -99.472496 -29.776915 -99.447235 -3.6368871 -87.84919
758000000 -4.3284411 -88.095436 -29.761448 -101.15718 -29.759911 -101.13177 -3.6647964 -88.14122
759000000 -4.357523 -88.358826 -29.744764 -102.85938 -29.743137 -102.83469 -3.6932113 -88.435608
760000000 -4.3870859 -88.624474 -29.728331 -104.58012 -29.726671 -104.55549 -3.7221103 -88.732315
761000000 -4.4171162 -88.892281 -29.712215 -106.31868 -29.710447 -106.29424 -3.7514927 -89.031387
762000000 -4.4476027 -89.162308 -29.696409 -108.07495 -29.694559 -108.05058 -3.7813663 -89.332817
763000000 -4.4784474 -89.434471 -29.680861 -109.84869 -29.679018 -109.82439 -3.8117321 -89.636559
764000000 -4.5096927 -89.708755 -29.665575 -111.63975 -29.663727 -111.61575 -3.8425949 -89.942581
765000000 -4.5412726 -89.985168 -29.650497 -113.44817 -29.648649 -113.4244 -3.8739572 -90.250931
766000000 -4.5731635 -90.263573 -29.635681 -115.27338 -29.633789 -115.24962 -3.9058216 -90.561577
767000000 -4.6053076 -90.543877 -29.621088 -117.11525 -29.619196 -117.09155 -3.9381931 -90.874474
768000000 -4.6377106 -90.825989 -29.606743 -118.9736 -29.604752 -118.95055 -3.9710748 -91.189682
769000000 -4.6703267 -91.109779 -29.592558 -120.84892 -29.590513 -120.82571 -4.0044689 -91.507065
770000000 -4.7031641 -91.395294 -29.578524 -122.74036 -29.576466 -122.71734 -4.0383816 -91.826729
771000000 -4.736196 -91.682442 -29.564579 -124.64832 -29.562525 -124.62521 -4.0728292 -92.148621
772000000 -4.769433 -91.971161 -29.550734 -126.57236 -29.548708 -126.54953 -4.1077971 -92.472679
773000000 -4.8028808 -92.261436 -29.537046 -128.51265 -29.53499 -128.48988 -4.1433063 -92.798874
774000000 -4.8365412 -92.553383 -29.523413 -130.46924 -29.521332 -130.44661 -4.1793666 -93.127037
775000000 -4.8704443 -92.84713 -29.509789 -132.44167 -29.507702 -132.41956 -4.2159953 -93.457283
776000000 -4.9045906 -93.142754 -29.496223 -134.43048 -29.494156 -134.40857 -4.2531986 -93.789444
777000000 -4.9390025 -93.440277 -29.482664 -136.4353 -29.480583 -136.4133 -4.2909741 -94.123497
778000000 -4.97366 -93.740067 -29.469109 -138.45642 -29.46697 -138.43459 -4.329308 -94.459305
779000000 -5.0086136 -94.042229 -29.455542 -140.49352 -29.453367 -140.47191 -4.3682356 -94.796806
780000000 -5.0438676 -94.34697 -29.441963 -142.54677 -29.439734 -142.52528 -4.4077516 -95.135811
781000000 -5.0794539 -94.65461 -29.428301 -144.61626 -29.426092 -144.59465 -4.4478855 -95.476349
782000000 -5.1153631 -94.965347 -29.414591 -146.70195 -29.412441 -146.6799 -4.4886303 -95.818161
783000000 -5.1516228 -95.279335 -29.400822 -148.80382 -29.398663 -148.78169 -4.5299959 -96.161118
784000000 -5.18822 -95.596855 -29.387016 -150.92175 -29.384876 -150.89983 -4.5719695 -96.505089
785000000 -5.2251873 -95.917976 -29.373093 -153.05557 -29.370911 -153.03401 -4.6145477 -96.849937
786000000 -5.2625341 -96.242805 -29.35915 -155.20576 -29.356903 -155.18423 -4.6577225 -97.195419
787000000 -5.3002648 -96.571388 -29.345104 -157.37224 -29.342806 -157.35057 -4.7014937 -97.541458
788000000 -5.3383765 -96.903839 -29.330935 -159.55472 -29.328661 -159.53314 -4.7458606 -97.887878
789000000 -5.3768911 -97.240082 -29.316671 -161.75349 -29.314409 -161.73169 -4.7907977 -98.234566
790000000 -5.4158487 -97.580078 -29.302273 -163.96811 -29.300064 -163.9458 -4.8363028 -98.581238
791000000 -5.4552393 -97.923683 -29.287811 -166.1985 -29.285643 -166.17638 -4.8823767 -98.927849
792000000 -5.4951091 -98.270859 -29.273247 -168.44463 -29.271084 -168.42274 -4.9289808 -99.2743
793000000 -5.5354533 -98.621346 -29.258602 -170.70674 -29.256355 -170.68492 -4.9760828 -99.620468
794000000 -5.576323 -98.975082 -29.243811 -172.98439 -29.241547 -172.96284 -5.0236549 -99.966057
795000000 -5.6177292 -99.331871 -29.228895 -175.27718 -29.226625 -175.25603 -5.0716877 -100.31124
796000000 -5.6596956 -99.691635 -29.213768 -177.58568 -29.21142 -177.56474 -5.1201425 -100.65581
797000000 -5.7022858 -100.05409 -29.198505 -179.9102 -29.196035 -179.88873 -5.1690063 -100.99973
798000000 -5.7455153 -100.41897 -29.182987 177.75032 -29.180508 177.77177 -5.2182522 -101.34309
799000000 -5.7894034 -100.78624 -29.167202 175.3956 -29.164717 175.41679 -5.2678385 -101.68575
800000000 -5.8339868 -101.1556 -29.151207 173.02565 -29.148666 173.04668 -5.3177452 -102.02781
801000000 -5.879312 -101.52696 -29.134848 170.64026 -29.132248 170.66156 -5.3679333 -102.36925
802000000 -5.9253979 -101.90015 -29.118156 168.23988 -29.11553 168.26077 -5.4183731 -102.71017
803000000 -5.9722581 -102.27495 -29.101097 165.82411 -29.098488 165.8452 -5.4690576 -103.05058
804000000 -6.0198927 -102.65125 -29.083633 163.39296 -29.081045 163.4142 -5.5199466 -103.39063
805000000 -6.0683036 -103.02872 -29.065815 160.94667 -29.06316 160.96803 -5.570992 -103.73041
806000000 -6.1175175 -103.40726 -29.047451 158.48486 -29.044813 158.50627 -5.6222005 -104.07006
807000000 -6.1674995 -103.78655 -29.028624 156.00768 -29.025948 156.02921 -5.6735411 -104.40976
808000000 -6.2182684 -104.16649 -29.009274 153.51486 -29.006531 153.53654 -5.7249904 -104.74969
809000000 -6.2697835 -104.54674 -28.989336 151.00632 -28.98654 151.02811 -5.7765255 -105.09
810000000 -6.3220034 -104.92702 -28.968821 148.48192 -28.96596 148.50359 -5.8281617 -105.4309
811000000 -6.3749108 -105.30701 -28.947645 145.94112 -28.944796 145.96288 -5.8798752 -105.77269
812000000 -6.4284382 -105.6865 -28.925863 143.38419 -28.922934 143.40587 -5.9316525 -106.11546
813000000 -6.4825697 -106.06509 -28.903448 140.81024 -28.900421 140.83217 -5.9835005 -106.45946
814000000 -6.5372605 -106.44259 -28.880331 138.21953 -28.877256 138.24142 -6.0354252 -106.80486
815000000 -6.5925002 -106.81877 -28.856539 135.6118 -28.853449 135.6337 -6.0874348 -107.15191
816000000 -6.6481791 -107.19331 -28.832083 132.98689 -28.828953 133.00842 -6.1395421 -107.5007
817000000 -6.7043061 -107.56622 -28.806906 130.34433 -28.803759 130.36533 -6.1917257 -107.85151
818000000 -6.7608075 -107.93717 -28.781088 127.68361 -28.777891 127.70469 -6.2440305 -108.20438
819000000 -6.8176517 -108.30628 -28.754566 125.00511 -28.751339 125.02578 -6.2964783 -108.55958
820000000 -6.8747787 -108.67351 -28.727385 122.30813 -28.724094 122.32843 -6.3490763 -108.91718
821000000 -6.9321508 -109.03893 -28.699514 119.59234 -28.696196 119.61245 -6.4018435 -109.27731
822000000 -6.9897532 -109.40279 -28.670973 116.8577 -28.667589 116.87806 -6.4547911 -109.64005
823000000 -7.0475044 -109.7651 -28.641846 114.10425 -28.638409 114.1244 -6.5079584 -110.00544
824000000 -7.1053915 -110.1262 -28.612024 111.33147 -28.608587 111.35149 -6.5613794 -110.37356
825000000 -7.1633377 -110.48645 -28.581661 108.53928 -28.57818 108.55924 -6.6150656 -110.74441
826000000 -7.2213306 -110.84621 -28.550711 105.72777 -28.547178 105.74759 -6.6690593 -111.11797
827000000 -7.279078 -111.20184 -28.519733 102.91466 -28.516172 102.93439 -6.723208 -111.49062
828000000 -7.3365016 -111.55379 -28.488668 100.10076 -28.485065 100.12041 -6.7775254 -111.86208
829000000 -7.3936033 -111.90246 -28.457535 97.285728 -28.454002 97.30555 -6.8320117 -112.23248
830000000 -7.4502935 -112.24821 -28.426443 94.46888 -28.422899 94.488792 -6.8867249 -112.60172
831000000 -7.5065756 -112.59148 -28.395432 91.650322 -28.391905 91.670914 -6.9416494 -112.96949
832000000 -7.5624208 -112.93271 -28.364532 88.831123 -28.360914 88.851425 -6.9968162 -113.33589
833000000 -7.6177979 -113.27208 -28.333719 86.010719 -28.330048 86.030907 -7.0522399 -113.70073
834000000 -7.67273 -113.60994 -28.303085 83.18924 -28.299358 83.209473 -7.107934 -114.06384
835000000 -7.7271929 -113.94655 -28.272741 80.36586 -28.268923 80.386147 -7.1639366 -114.42509
836000000 -7.7811937 -114.28216 -28.242523 77.541687 -28.238705 77.562592 -7.2202196 -114.78432
837000000 -7.8347716 -114.61697 -28.212595 74.717049 -28.208698 74.737617 -7.2767959 -115.14127
838000000 -7.8878999 -114.95102 -28.182968 71.891457 -28.17902 71.911507 -7.3336582 -115.4958
839000000 -7.9406877 -115.28452 -28.153725 69.064995 -28.14966 69.085228 -7.3908548 -115.84767
840000000 -7.9931378 -115.61771 -28.124725 66.238197 -28.120729 66.258774 -7.4483347 -116.19669
841000000 -8.0453167 -115.95056 -28.096077 63.411304 -28.09202 63.43177 -7.5060873 -116.54259
842000000 -8.0972929 -116.28334 -28.067726 60.584805 -28.063702 60.60466 -7.5641336 -116.88518
843000000 -8.1491585 -116.61608 -28.039772 57.758144 -28.035778 57.777924 -7.6224475 -117.22427
844000000 -8.2009106 -116.94906 -28.012119 54.932606 -28.008198 54.951786 -7.6809673 -117.55968
845000000 -8.2526579 -117.2822 -27.984882 52.107258 -27.980928 52.126503 -7.7397027 -117.89113
846000000 -8.3044901 -117.61586 -27.958008 49.282528 -27.954098 49.301811 -7.7986236 -118.21842
847000000 -8.3564415 -117.94999 -27.931509 46.458267 -27.927574 46.477551 -7.8577194 -118.54146
848000000 -8.4085627 -118.28494 -27.90535 43.635674 -27.901436 43.654617 -7.9169416 -118.86003
849000000 -8.4608927 -118.62059 -27.879526 40.813992 -27.875528 40.832825 -7.9762106 -119.17407
850000000 -8.5134802 -118.95703 -27.854092 37.99324 -27.850004 38.012012 -8.0355272 -119.48349
851000000 -8.5664053 -119.29426 -27.829016 35.174149 -27.824848 35.193195 -8.0948429 -119.78809
852000000 -8.6196499 -119.63198 -27.804165 32.35677 -27.799974 32.375973 -8.1541271 -120.0879
853000000 -8.6733055 -119.97028 -27.77968 29.541124 -27.775473 29.560162 -8.2133331 -120.38304
854000000 -8.7273245 -120.30877 -27.755459 26.726879 -27.751282 26.746002 -8.2724257 -120.67345
855000000 -8.7817802 -120.64726 -27.731476 23.914612 -27.727291 23.933372 -8.3313532 -120.9592
856000000 -8.8366451 -120.98518 -27.707726 21.104599 -27.703499 21.122717 -8.3900661 -121.24017
857000000 -8.8918915 -121.322 -27.684221 18.29565 -27.679956 18.314157 -8.4485588 -121.51665
858000000 -8.9475765 -121.65733 -27.660986 15.489256 -27.656672 15.507736 -8.5067739 -121.78876
859000000 -9.0036077 -121.99028 -27.637857 12.684596 -27.63356 12.703576 -8.564683 -122.05655
860000000 -9.0600262 -122.32047 -27.614971 9.8817577 -27.6106 9.9013147 -8.622283 -122.32027
861000000 -9.1168537 -122.64699 -27.592205 7.0808835 -27.587776 7.1007957 -8.6795521 -122.58002
862000000 -9.1741304 -122.9694 -27.569613 4.2819347 -27.565096 4.3023782 -8.7364874 -122.83601
863000000 -9.2317781 -123.287 -27.547197 1.4854025 -27.542622 1.5056576 -8.7930622 -123.08836
864000000 -9.2897911 -123.59916 -27.524792 -1.3095076 -27.520306 -1.2889529 -8.8492718 -123.33717
865000000 -9.3481817 -123.90525 -27.502522 -4.102283 -27.498091 -4.0818262 -8.9050846 -123.58271
866000000 -9.4069519 -124.20497 -27.480444 -6.8936348 -27.475895 -6.8729587 -8.9605217 -123.82509
867000000 -9.4660139 -124.498 -27.458414 -9.6828165 -27.453835 -9.6621399 -9.0155945 -124.06445
868000000 -9.5253696 -124.78407 -27.436491 -12.470619 -27.431875 -12.450018 -9.0702896 -124.30088
869000000 -9.584897 -125.06302 -27.414667 -15.256438 -27.410034 -15.23609 -9.1246386 -124.53461
870000000 -9.6445484 -125.33486 -27.392855 -18.040815 -27.388243 -18.02092 -9.1786165 -124.7657
871000000 -9.7043047 -125.59985 -27.371201 -20.823708 -27.366512 -20.803576 -9.2322464 -124.99433
872000000 -9.7640295 -125.85808 -27.349627 -23.605253 -27.344908 -23.584948 -9.2855282 -125.22045
873000000 -9.8236675 -126.10986 -27.328102 -26.385355 -27.32336 -26.364782 -9.3384819 -125.44421
874000000 -9.8830385 -126.35543 -27.306671 -29.164007 -27.30187 -29.143293 -9.3911152 -125.66553
875000000 -9.9420977 -126.5954 -27.285357 -31.941206 -27.280453 -31.920443 -9.4434662 -125.88462
876000000 -10.000713 -126.83003 -27.264109 -34.717083 -27.259167 -34.696201 -9.4955463 -126.10155
877000000 -10.058815 -127.0597 -27.242918 -37.491394 -27.237988 -37.470333 -9.5473576 -126.31614
878000000 -10.116301 -127.28481 -27.221861 -40.264397 -27.216957 -40.242989 -9.5989132 -126.52849
879000000 -10.173099 -127.50587 -27.200977 -43.036053 -27.196018 -43.014423 -9.6502228 -126.73855
880000000 -10.229106 -127.72308 -27.180109 -45.806164 -27.175243 -45.784485 -9.701354 -126.94624
881000000 -10.284302 -127.93666 -27.159403 -48.574661 -27.154535 -48.552723 -9.7522898 -127.15136
882000000 -10.338617 -128.1468 -27.138842 -51.341797 -27.134005 -51.319916 -9.8030481 -127.35401
883000000 -10.392021 -128.35374 -27.118292 -54.107216 -27.113583 -54.085514 -9.8536043 -127.55396
884000000 -10.444521 -128.55745 -27.097868 -56.871132 -27.093214 -56.849491 -9.903966 -127.75114
885000000 -10.496093 -128.75827 -27.077591 -59.633366 -27.072947 -59.611496 -9.954133 -127.94522
886000000 -10.546758 -128.9561 -27.057335 -62.393459 -27.052773 -62.371723 -10.004125 -128.13629
887000000 -10.596516 -129.15123 -27.037222 -65.151985 -27.032707 -65.130051 -10.053935 -128.32397
888000000 -10.645473 -129.34361 -27.017199 -67.908798 -27.012674 -67.886574 -10.10355 -128.50812
889000000 -10.693618 -129.53363 -26.997252 -70.663422 -26.992699 -70.641281 -10.15296 -128.68845
890000000 -10.741024 -129.72128 -26.977419 -73.415871 -26.972849 -73.393509 -10.202211 -128.86499
891000000 -10.787755 -129.9071 -26.95763 -76.166069 -26.953142 -76.143463 -10.251202 -129.0376
892000000 -10.833857 -130.09152 -26.937841 -78.914154 -26.933422 -78.891739 -10.29995 -129.20595
893000000 -10.879353 -130.27477 -26.918032 -81.660088 -26.91366 -81.637451 -10.348413 -129.37001
894000000 -10.924297 -130.45729 -26.898306 -84.403976 -26.893934 -84.381332 -10.396577 -129.52954
895000000 -10.968738 -130.63956 -26.878597 -87.145256 -26.874193 -87.122841 -10.444395 -129.68454
896000000 -11.012701 -130.82211 -26.858845 -89.884964 -26.854475 -89.86232 -10.491829 -129.83481
897000000 -11.056186 -131.00546 -26.839064 -92.62207 -26.834709 -92.599495 -10.538822 -129.9803
898000000 -11.099217 -131.18983 -26.819168 -95.356956 -26.814907 -95.334282 -10.585369 -130.12103
899000000 -11.141788 -131.37556 -26.799219 -98.089493 -26.794947 -98.067032 -10.631401 -130.257
900000000 -11.183925 -131.563 -26.779171 -100.82025 -26.774885 -100.79764 -10.676899 -130.38821
901000000 -11.225632 -131.75238 -26.758991 -103.54865 -26.754698 -103.52599 -10.721808 -130.5148
902000000 -11.266876 -131.94357 -26.738768 -106.27488 -26.734406 -106.25215 -10.766083 -130.6368
903000000 -11.307673 -132.13689 -26.718325 -108.99896 -26.713936 -108.97603 -10.809661 -130.75436
904000000 -11.348027 -132.33209 -26.697659 -111.72114 -26.693283 -111.69802 -10.852509 -130.86763
905000000 -11.387984 -132.52919 -26.676785 -114.44132 -26.67243 -114.41809 -10.894575 -130.9769
906000000 -11.427525 -132.72774 -26.655666 -117.15986 -26.65134 -117.13649 -10.935846 -131.0824
907000000 -11.466701 -132.92755 -26.634321 -119.87679 -26.629984 -119.85329 -10.976266 -131.18423
908000000 -11.505535 -133.12837 -26.612738 -122.59183 -26.608355 -122.56879 -11.015825 -131.28279
909000000 -11.544101 -133.3298 -26.590849 -125.30578 -26.586424 -125.28278 -11.054493 -131.37831
910000000 -11.582451 -133.53133 -26.568621 -128.0191 -26.564278 -127.99568 -11.092241 -131.47102
911000000 -11.620661 -133.73271 -26.546146 -130.73106 -26.541845 -130.70757 -11.129058 -131.56133
912000000 -11.658763 -133.93384 -26.523384 -133.44218 -26.519142 -133.41858 -11.164959 -131.64951
913000000 -11.696818 -134.13406 -26.500288 -136.15277 -26.496048 -136.12926 -11.199909 -131.73576
914000000 -11.734983 -134.33334 -26.476929 -138.86288 -26.472591 -138.83936 -11.2339 -131.82056
915000000 -11.773205 -134.53146 -26.453222 -141.57286 -26.448847 -141.54921 -11.266932 -131.9041
916000000 -11.811605 -134.72804 -26.429274 -144.28246 -26.42486 -144.25887 -11.298993 -131.98653
917000000 -11.850224 -134.923 -26.405027 -146.99261 -26.400627 -146.96921 -11.330117 -132.06828
918000000 -11.889126 -135.11603 -26.380445 -149.7032 -26.37598 -149.67992 -11.360252 -132.14954
919000000 -11.928281 -135.30713 -26.355558 -152.41443 -26.35117 -152.3907 -11.389438 -132.23055
920000000 -11.96773 -135.49608 -26.330458 -155.12608 -26.326122 -155.10268 -11.417722 -132.31165
921000000 -12.00743 -135.68268 -26.305155 -157.83876 -26.300827 -157.81517 -11.445092 -132.3929
922000000 -12.047371 -135.86661 -26.279675 -160.55219 -26.275311 -160.52864 -11.471545 -132.47466
923000000 -12.087517 -136.04765 -26.254 -163.26668 -26.249594 -163.24304 -11.497112 -132.55719
924000000 -12.127794 -136.22568 -26.228113 -165.98203 -26.223694 -165.95847 -11.521831 -132.64053
925000000 -12.168181 -136.40025 -26.202114 -168.69843 -26.197624 -168.6748 -11.54569 -132.72502
926000000 -12.208568 -136.57083 -26.176052 -171.41623 -26.171482 -171.3923 -11.568703 -132.81058
927000000 -12.248885 -136.7373 -26.149851 -174.13487 -26.145155 -174.11086 -11.590886 -132.89757
928000000 -12.289066 -136.89951 -26.123526 -176.85463 -26.118784 -176.83107 -11.612288 -132.9861
929000000 -12.32906 -137.05688 -26.097073 -179.57538 -26.09236 -179.5518 -11.632923 -133.0762
930000000 -12.368761 -137.20927 -26.070572 177.70267 -26.065868 177.72624 -11.652809 -133.16808
931000000 -12.408165 -137.3566 -26.044003 174.97955 -26.039324 175.00322 -11.671964 -133.2618
932000000 -12.447135 -137.49844 -26.017406 172.25555 -26.012659 172.27888 -11.69039 -133.35741
933000000 -12.485637 -137.6347 -25.990778 169.53044 -25.985905 169.55339 -11.708122 -133.45508
934000000 -12.523601 -137.76553 -25.964132 166.80447 -25.959154 166.82715 -11.725176 -133.55495
935000000 -12.561005 -137.89087 -25.937368 164.07716 -25.932299 164.09993 -11.741592 -133.65697
936000000 -12.597749 -138.01108 -25.910627 161.34868 -25.905521 161.37132 -11.757403 -133.76126
937000000 -12.633833 -138.12627 -25.88377 158.61929 -25.878654 158.64171 -11.772634 -133.86792
938000000 -12.669149 -138.237 -25.85693 155.88902 -25.851784 155.9111 -11.787305 -133.97694
939000000 -12.703715 -138.34348 -25.830063 153.15744 -25.824814 153.17973 -11.80144 -134.08833
940000000 -12.737433 -138.44626 -25.803169 150.42523 -25.797783 150.44693 -11.815063 -134.20207
941000000 -12.77023 -138.54587 -25.776262 147.69139 -25.770754 147.71228 -11.828194 -134.31825
942000000 -12.802082 -138.64279 -25.749268 144.95586 -25.743654 144.97708 -11.840848 -134.43674
943000000 -12.832922 -138.73726 -25.722212 142.21901 -25.716536 142.24042 -11.853053 -134.55753
944000000 -12.862756 -138.83022 -25.695091 139.48079 -25.689453 139.50214 -11.864861 -134.68057
945000000 -12.8915 -138.92201 -25.667961 136.74095 -25.662327 136.76241 -11.876292 -134.80605
946000000 -12.919131 -139.01302 -25.640787 133.9989 -25.635113 134.02048 -11.887344 -134.93358
947000000 -12.945641 -139.10367 -25.613659 131.25505 -25.608053 131.27672 -11.898048 -135.06313
948000000 -12.970949 -139.19426 -25.586533 128.50969 -25.580969 128.53079 -11.908395 -135.19464
949000000 -12.995074 -139.28525 -25.559423 125.76198 -25.553865 125.78299 -11.918394 -135.32779
950000000 -13.018008 -139.37659 -25.532482 123.01191 -25.526817 123.03317 -11.928066 -135.46268
951000000 -13.039753 -139.46889 -25.505495 120.25951 -25.499865 120.28079 -11.937407 -135.59903
952000000 -13.060324 -139.56224 -25.478727 117.50478 -25.473133 117.52584 -11.946446 -135.73685
953000000 -13.079713 -139.65672 -25.452122 114.74764 -25.446474 114.76884 -11.955175 -135.8759
954000000 -13.097956 -139.75282 -25.425701 111.9881 -25.419947 112.00898 -11.963585 -136.0162
